T1F48 4928:223 SEGGER J-Link V6.32 Log File (0001ms, 15798ms total)
T1F48 4928:223 DLL Compiled: Apr 20 2018 17:25:02 (0001ms, 15798ms total)
T1F48 4928:223 Logging started @ 2018-09-05 18:59 (0001ms, 15798ms total)
T1F48 4928:224 JLINK_SetWarnOutHandler(...) (0000ms, 15798ms total)
T1F48 4928:224 JLINK_OpenEx(...)
Firmware: J-Link V9 compiled Apr 20 2018 16:47:26
Hardware: V9.40
S/N: 36410082
Feature(s): RDI, GDB, FlashDL, FlashBP, JFlash
TELNET listener socket opened on port 19021XML file found at: C:\Keil_v5\ARM\Segger\JLinkDevices.xml (0149ms, 15947ms total)
T1F48 4928:224 C:\Keil_v5\ARM\Segger\JLinkDevices.xml evaluated successfully.WEBSRV 
Starting webserver (0562ms, 16360ms total)
T1F48 4928:224 WEBSRV Webserver running on local port 19080 (0562ms, 16360ms total)
T1F48 4928:224   returns O.K. (0562ms, 16360ms total)
T1F48 4928:786 JLINK_GetEmuCaps()  returns 0xB9FF7BBF (0000ms, 16360ms total)
T1F48 4928:787 JLINK_TIF_GetAvailable(...) (0000ms, 16360ms total)
T1F48 4928:787 JLINK_SetErrorOutHandler(...) (0000ms, 16360ms total)
T1F48 4928:787 JLINK_ExecCommand("ProjectFile = "F:\EASTWIN\eQ1620\software\iap\iap\MDK-ARM\JLinkSettings.ini"", ...).   returns 0x00 (0002ms, 16362ms total)
T1F48 4928:791 JLINK_ExecCommand("Device = STM32F407VETx", ...). Device "STM32F407VE" selected.  returns 0x00 (0005ms, 16367ms total)
T1F48 4928:796 JLINK_ExecCommand("DisableConnectionTimeout", ...).   returns 0x01 (0000ms, 16367ms total)
T1F48 4928:796 JLINK_GetHardwareVersion()  returns 0x16F30 (0000ms, 16367ms total)
T1F48 4928:796 JLINK_GetDLLVersion()  returns 63200 (0000ms, 16367ms total)
T1F48 4928:796 JLINK_GetFirmwareString(...) (0000ms, 16367ms total)
T1F48 4928:802 JLINK_GetDLLVersion()  returns 63200 (0000ms, 16367ms total)
T1F48 4928:802 JLINK_GetCompileDateTime() (0000ms, 16367ms total)
T1F48 4928:804 JLINK_GetFirmwareString(...) (0000ms, 16367ms total)
T1F48 4928:806 JLINK_GetHardwareVersion()  returns 0x16F30 (0000ms, 16367ms total)
T1F48 4928:819 JLINK_TIF_Select(JLINKARM_TIF_SWD)  returns 0x00 (0001ms, 16368ms total)
T1F48 4928:820 JLINK_SetSpeed(5000) (0001ms, 16369ms total)
T1F48 4928:821 JLINK_GetId() >0x10B TIF>Found SW-DP with ID 0x2BA01477 >0x0D TIF> >0x28 TIF> >0x0D TIF> >0x28 TIF> >0x0D TIF> >0x28 TIF> >0x0D TIF> >0x28 TIF> >0x0D TIF> >0x21 TIF> >0x0D TIF> >0x28 TIF> >0x0D TIF> >0x28 TIF> >0x0D TIF> >0x28 TIF> >0x0D TIF> >0x21 TIF> >0x0D TIF> >0x21 TIF> >0x0D TIF> >0x28 TIF> >0x0D TIF> >0x21 TIF> >0x0D TIF> >0x21 TIF> >0x0D TIF> >0x28 TIF> >0x0D TIF> >0x21 TIF> >0x0D TIF> >0x21 TIF> >0x0D TIF> >0x28 TIF> >0x0D TIF> >0x21 TIF> >0x0D TIF> >0x21 TIF> >0x0D TIF>
 >0x28 TIF> >0x0D TIF> >0x21 TIF> >0x0D TIF> >0x21 TIF> >0x0D TIF> >0x28 TIF> >0x0D TIF> >0x21 TIF> >0x0D TIF> >0x21 TIF> >0x10B TIF>Found SW-DP with ID 0x2BA01477 >0x0D TIF> >0x28 TIF> >0x0D TIF> >0x28 TIF> >0x0D TIF> >0x28 TIF> >0x0D TIF> >0x28 TIF> >0x0D TIF> >0x21 TIF> >0x0D TIF> >0x28 TIF>Scanning AP map to find all available APs >0x0D TIF> >0x28 TIF> >0x0D TIF> >0x21 TIF> >0x0D TIF> >0x21 TIF> >0x0D TIF> >0x28 TIF> >0x0D TIF> >0x21 TIF> >0x0D TIF> >0x21 TIF>
AP[1]: Stopped AP scan as end of AP map has been reachedAP[0]: AHB-AP (IDR: 0x24770011)Iterating through AP map to find AHB-AP to use >0x42 TIF> >0x28 TIF> >0x0D TIF> >0x28 TIF> >0x0D TIF> >0x21 TIF> >0x0D TIF> >0x21 TIF> >0x42 TIF> >0x28 TIF> >0x0D TIF> >0x28 TIF> >0x0D TIF> >0x28 TIF> >0x0D TIF> >0x21 TIF> >0x0D TIF> >0x21 TIF>AP[0]: Core foundAP[0]: AHB-AP ROM base: 0xE00FF000 >0x0D TIF> >0x28 TIF> >0x0D TIF> >0x28 TIF> >0x0D TIF> >0x28 TIF> >0x0D TIF> >0x21 TIF> >0x0D TIF> >0x21 TIF>
CPUID register: 0x410FC241. Implementer code: 0x41 (ARM)Found Cortex-M4 r0p1, Little endian. -- CPU_ReadMem(4 bytes @ 0xE000EDF0) -- CPU_WriteMem(4 bytes @ 0xE000EDF0) -- CPU_ReadMem(4 bytes @ 0xE0002000)FPUnit: 6 code (BP) slots and 2 literal slots -- CPU_ReadMem(4 bytes @ 0xE000EDFC) -- CPU_WriteMem(4 bytes @ 0xE000EDFC) -- CPU_ReadMem(4 bytes @ 0xE0001000) -- CPU_WriteMem(4 bytes @ 0xE0001000) -- CPU_ReadMem(4 bytes @ 0xE000ED88) -- CPU_WriteMem(4 bytes @ 0xE000ED88)
 -- CPU_ReadMem(4 bytes @ 0xE000ED88) -- CPU_WriteMem(4 bytes @ 0xE000ED88)CoreSight components:ROMTbl[0] @ E00FF000 -- CPU_ReadMem(16 bytes @ 0xE00FF000) -- CPU_ReadMem(16 bytes @ 0xE000EFF0) -- CPU_ReadMem(16 bytes @ 0xE000EFE0)ROMTbl[0][0]: E000E000, CID: B105E00D, PID: 000BB00C SCS-M7 -- CPU_ReadMem(16 bytes @ 0xE0001FF0) -- CPU_ReadMem(16 bytes @ 0xE0001FE0)ROMTbl[0][1]: E0001000, CID: B105E00D, PID: 003BB002 DWT -- CPU_ReadMem(16 bytes @ 0xE0002FF0) -- CPU_ReadMem(16 bytes @ 0xE0002FE0)
ROMTbl[0][2]: E0002000, CID: B105E00D, PID: 002BB003 FPB -- CPU_ReadMem(16 bytes @ 0xE0000FF0) -- CPU_ReadMem(16 bytes @ 0xE0000FE0)ROMTbl[0][3]: E0000000, CID: B105E00D, PID: 003BB001 ITM -- CPU_ReadMem(16 bytes @ 0xE00FF010) -- CPU_ReadMem(16 bytes @ 0xE0040FF0) -- CPU_ReadMem(16 bytes @ 0xE0040FE0)ROMTbl[0][4]: E0040000, CID: B105900D, PID: 000BB9A1 TPIU -- CPU_ReadMem(16 bytes @ 0xE0041FF0) -- CPU_ReadMem(16 bytes @ 0xE0041FE0)ROMTbl[0][5]: E0041000, CID: B105900D, PID: 000BB925 ETM >0x0D TIF>
 >0x21 TIF>  returns 0x2BA01477 (0262ms, 16631ms total)
T1F48 4929:083 JLINK_GetDLLVersion()  returns 63200 (0000ms, 16631ms total)
T1F48 4929:083 JLINK_CORE_GetFound()  returns 0xE0000FF (0000ms, 16631ms total)
T1F48 4929:083 JLINK_GetDebugInfo(0x100 = JLINKARM_ROM_TABLE_ADDR_INDEX) -- Value=0xE00FF000  returns 0x00 (0000ms, 16631ms total)
T1F48 4929:087 JLINK_GetDebugInfo(0x100 = JLINKARM_ROM_TABLE_ADDR_INDEX) -- Value=0xE00FF000  returns 0x00 (0000ms, 16631ms total)
T1F48 4929:087 JLINK_GetDebugInfo(0x101 = JLINKARM_DEBUG_INFO_ETM_ADDR_INDEX) -- Value=0xE0041000  returns 0x00 (0000ms, 16631ms total)
T1F48 4929:087 JLINK_ReadMemEx(0xE0041FD0, 0x0020 Bytes, ..., Flags = 0x02000004) -- CPU_ReadMem(32 bytes @ 0xE0041FD0) - Data: 04 00 00 00 00 00 00 00 00 00 00 00 00 00 00 00 ...  returns 0x20 (0001ms, 16632ms total)
T1F48 4929:088 JLINK_GetDebugInfo(0x102 = JLINKARM_DEBUG_INFO_MTB_ADDR_INDEX) -- Value=0x00000000  returns 0x00 (0000ms, 16632ms total)
T1F48 4929:088 JLINK_GetDebugInfo(0x103 = JLINKARM_DEBUG_INFO_TPIU_ADDR_INDEX) -- Value=0xE0040000  returns 0x00 (0000ms, 16632ms total)
T1F48 4929:088 JLINK_GetDebugInfo(0x104 = JLINKARM_DEBUG_INFO_ITM_ADDR_INDEX) -- Value=0xE0000000  returns 0x00 (0000ms, 16632ms total)
T1F48 4929:088 JLINK_GetDebugInfo(0x105 = JLINKARM_DEBUG_INFO_DWT_ADDR_INDEX) -- Value=0xE0001000  returns 0x00 (0000ms, 16632ms total)
T1F48 4929:088 JLINK_GetDebugInfo(0x106 = JLINKARM_DEBUG_INFO_FPB_ADDR_INDEX) -- Value=0xE0002000  returns 0x00 (0000ms, 16632ms total)
T1F48 4929:088 JLINK_GetDebugInfo(0x107 = JLINKARM_DEBUG_INFO_NVIC_ADDR_INDEX) -- Value=0xE000E000  returns 0x00 (0000ms, 16632ms total)
T1F48 4929:088 JLINK_GetDebugInfo(0x10C = JLINKARM_DEBUG_INFO_DBG_ADDR_INDEX) -- Value=0xE000EDF0  returns 0x00 (0000ms, 16632ms total)
T1F48 4929:088 JLINK_GetDebugInfo(0x01 = Unknown) -- Value=0x00000001  returns 0x00 (0000ms, 16632ms total)
T1F48 4929:088 JLINK_ReadMemU32(0xE000ED00, 0x0001 Items, ...) -- CPU_ReadMem(4 bytes @ 0xE000ED00) - Data: 41 C2 0F 41  returns 0x01 (0001ms, 16633ms total)
T1F48 4929:089 JLINK_GetDebugInfo(0x10F = JLINKARM_DEBUG_INFO_HAS_CORTEX_M_SECURITY_EXT_INDEX) -- Value=0x00000000  returns 0x00 (0000ms, 16633ms total)
T1F48 4929:089 JLINK_SetResetType(JLINKARM_CM3_RESET_TYPE_NORMAL)  returns JLINKARM_CM3_RESET_TYPE_NORMAL (0000ms, 16633ms total)
T1F48 4929:089 JLINK_Reset() -- CPU is running -- CPU_WriteMem(4 bytes @ 0xE000EDF0) -- CPU is running -- CPU_WriteMem(4 bytes @ 0xE000EDFC)Reset: Halt core after reset via DEMCR.VC_CORERESET. >0x35 TIF>Reset: Reset device via AIRCR.SYSRESETREQ. -- CPU is running -- CPU_WriteMem(4 bytes @ 0xE000ED0C) >0x0D TIF> >0x28 TIF> -- CPU_ReadMem(4 bytes @ 0xE000EDF0) -- CPU_ReadMem(4 bytes @ 0xE000EDF0) -- CPU is running -- CPU_WriteMem(4 bytes @ 0xE000EDF0) -- CPU is running -- CPU_WriteMem(4 bytes @ 0xE000EDFC)
 -- CPU_ReadMem(4 bytes @ 0xE000EDF0) -- CPU_WriteMem(4 bytes @ 0xE0002000) -- CPU_ReadMem(4 bytes @ 0xE000EDFC) -- CPU_ReadMem(4 bytes @ 0xE0001000) (0076ms, 16709ms total)
T1F48 4929:165 JLINK_Halt()  returns 0x00 (0000ms, 16709ms total)
T1F48 4929:165 JLINK_ReadMemU32(0xE000EDF0, 0x0001 Items, ...) -- CPU_ReadMem(4 bytes @ 0xE000EDF0) - Data: 03 00 03 00  returns 0x01 (0001ms, 16710ms total)
T1F48 4929:166 JLINK_WriteU32(0xE000EDF0, 0xA05F0003) -- CPU_WriteMem(4 bytes @ 0xE000EDF0)  returns 0x00 (0000ms, 16710ms total)
T1F48 4929:166 JLINK_WriteU32(0xE000EDFC, 0x01000000) -- CPU_WriteMem(4 bytes @ 0xE000EDFC)  returns 0x00 (0001ms, 16711ms total)
T1F48 4929:182 JLINK_GetHWStatus(...)  returns 0x00 (0001ms, 16712ms total)
T1F48 4929:194 JLINK_GetNumBPUnits(Type = 0xFFFFFF00)  returns 0x06 (0000ms, 16712ms total)
T1F48 4929:194 JLINK_GetNumBPUnits(Type = 0xF0)  returns 0x2000 (0000ms, 16712ms total)
T1F48 4929:194 JLINK_GetNumWPUnits()  returns 0x04 (0000ms, 16712ms total)
T1F48 4929:205 JLINK_GetSpeed()  returns 0xFA0 (0000ms, 16712ms total)
T1F48 4929:213 JLINK_ReadMemU32(0xE000E004, 0x0001 Items, ...) -- CPU_ReadMem(4 bytes @ 0xE000E004) - Data: 02 00 00 00  returns 0x01 (0001ms, 16713ms total)
T1F48 4929:214 JLINK_ReadMemU32(0xE000E004, 0x0001 Items, ...) -- CPU_ReadMem(4 bytes @ 0xE000E004) - Data: 02 00 00 00  returns 0x01 (0000ms, 16713ms total)
T1F48 4929:214 JLINK_WriteMemEx(0xE0001000, 0x001C Bytes, ..., Flags = 0x02000004) - Data: 01 00 00 00 00 00 00 00 00 00 00 00 00 00 00 00 ... -- CPU_WriteMem(28 bytes @ 0xE0001000)  returns 0x1C (0001ms, 16714ms total)
T1F48 4929:215 JLINK_Halt()  returns 0x00 (0001ms, 16715ms total)
T1F48 4929:216 JLINK_IsHalted()  returns TRUE (0000ms, 16715ms total)
T1F48 4929:218 JLINK_WriteMem(0x20000000, 0x0188 Bytes, ...) - Data: 00 BE 0A E0 0D 78 2D 06 68 40 08 24 40 00 00 D3 ... -- CPU_WriteMem(392 bytes @ 0x20000000)  returns 0x188 (0003ms, 16718ms total)
T1F48 4929:221 JLINK_WriteReg(R0, 0x08000000)  returns 0x00 (0000ms, 16718ms total)
T1F48 4929:221 JLINK_WriteReg(R1, 0x0A037A00)  returns 0x00 (0000ms, 16718ms total)
T1F48 4929:221 JLINK_WriteReg(R2, 0x00000001)  returns 0x00 (0000ms, 16718ms total)
T1F48 4929:221 JLINK_WriteReg(R3, 0x00000000)  returns 0x00 (0000ms, 16718ms total)
T1F48 4929:221 JLINK_WriteReg(R4, 0x00000000)  returns 0x00 (0000ms, 16718ms total)
T1F48 4929:221 JLINK_WriteReg(R5, 0x00000000)  returns 0x00 (0000ms, 16718ms total)
T1F48 4929:221 JLINK_WriteReg(R6, 0x00000000)  returns 0x00 (0000ms, 16718ms total)
T1F48 4929:221 JLINK_WriteReg(R7, 0x00000000)  returns 0x00 (0000ms, 16718ms total)
T1F48 4929:221 JLINK_WriteReg(R8, 0x00000000)  returns 0x00 (0000ms, 16718ms total)
T1F48 4929:221 JLINK_WriteReg(R9, 0x20000184)  returns 0x00 (0000ms, 16718ms total)
T1F48 4929:221 JLINK_WriteReg(R10, 0x00000000)  returns 0x00 (0000ms, 16718ms total)
T1F48 4929:221 JLINK_WriteReg(R11, 0x00000000)  returns 0x00 (0000ms, 16718ms total)
T1F48 4929:221 JLINK_WriteReg(R12, 0x00000000)  returns 0x00 (0000ms, 16718ms total)
T1F48 4929:221 JLINK_WriteReg(R13 (SP), 0x20001000)  returns 0x00 (0000ms, 16718ms total)
T1F48 4929:221 JLINK_WriteReg(R14, 0x20000001)  returns 0x00 (0000ms, 16718ms total)
T1F48 4929:221 JLINK_WriteReg(R15 (PC), 0x2000005E)  returns 0x00 (0000ms, 16718ms total)
T1F48 4929:221 JLINK_WriteReg(XPSR, 0x01000000)  returns 0x00 (0000ms, 16718ms total)
T1F48 4929:221 JLINK_WriteReg(MSP, 0x20001000)  returns 0x00 (0000ms, 16718ms total)
T1F48 4929:221 JLINK_WriteReg(PSP, 0x20001000)  returns 0x00 (0000ms, 16718ms total)
T1F48 4929:221 JLINK_WriteReg(CFBP, 0x00000000)  returns 0x00 (0000ms, 16718ms total)
T1F48 4929:221 JLINK_SetBPEx(Addr = 0x20000000, Type = 0xFFFFFFF2) -- CPU_ReadMem(2 bytes @ 0x20000000)  returns 0x00000001 (0000ms, 16718ms total)
T1F48 4929:221 JLINK_Go() -- CPU_WriteMem(2 bytes @ 0x20000000) -- CPU_ReadMem(4 bytes @ 0xE0001000) -- CPU_WriteMem(4 bytes @ 0xE0002008) -- CPU_WriteMem(4 bytes @ 0xE000200C) -- CPU_WriteMem(4 bytes @ 0xE0002010) -- CPU_WriteMem(4 bytes @ 0xE0002014) -- CPU_WriteMem(4 bytes @ 0xE0002018) -- CPU_WriteMem(4 bytes @ 0xE000201C) -- CPU_WriteMem(4 bytes @ 0xE0001004) (0004ms, 16722ms total)
T1F48 4929:226 JLINK_IsHalted() -- CPU_ReadMem(2 bytes @ 0x20000000)  returns TRUE (0002ms, 16725ms total)
T1F48 4929:228 JLINK_ReadReg(R15 (PC))  returns 0x20000000 (0000ms, 16723ms total)
T1F48 4929:228 JLINK_ClrBPEx(BPHandle = 0x00000001)  returns 0x00 (0000ms, 16723ms total)
T1F48 4929:228 JLINK_ReadReg(R0)  returns 0x00000000 (0000ms, 16723ms total)
T1F48 4929:229 JLINK_WriteReg(R0, 0x08000000)  returns 0x00 (0000ms, 16723ms total)
T1F48 4929:229 JLINK_WriteReg(R1, 0x00004000)  returns 0x00 (0000ms, 16723ms total)
T1F48 4929:229 JLINK_WriteReg(R2, 0x000000FF)  returns 0x00 (0000ms, 16723ms total)
T1F48 4929:229 JLINK_WriteReg(R3, 0x00000000)  returns 0x00 (0000ms, 16723ms total)
T1F48 4929:229 JLINK_WriteReg(R4, 0x00000000)  returns 0x00 (0000ms, 16723ms total)
T1F48 4929:229 JLINK_WriteReg(R5, 0x00000000)  returns 0x00 (0000ms, 16723ms total)
T1F48 4929:229 JLINK_WriteReg(R6, 0x00000000)  returns 0x00 (0000ms, 16723ms total)
T1F48 4929:229 JLINK_WriteReg(R7, 0x00000000)  returns 0x00 (0000ms, 16723ms total)
T1F48 4929:229 JLINK_WriteReg(R8, 0x00000000)  returns 0x00 (0000ms, 16723ms total)
T1F48 4929:229 JLINK_WriteReg(R9, 0x20000184)  returns 0x00 (0000ms, 16723ms total)
T1F48 4929:229 JLINK_WriteReg(R10, 0x00000000)  returns 0x00 (0000ms, 16723ms total)
T1F48 4929:229 JLINK_WriteReg(R11, 0x00000000)  returns 0x00 (0000ms, 16723ms total)
T1F48 4929:229 JLINK_WriteReg(R12, 0x00000000)  returns 0x00 (0000ms, 16723ms total)
T1F48 4929:229 JLINK_WriteReg(R13 (SP), 0x20001000)  returns 0x00 (0000ms, 16723ms total)
T1F48 4929:229 JLINK_WriteReg(R14, 0x20000001)  returns 0x00 (0000ms, 16723ms total)
T1F48 4929:229 JLINK_WriteReg(R15 (PC), 0x20000020)  returns 0x00 (0000ms, 16723ms total)
T1F48 4929:229 JLINK_WriteReg(XPSR, 0x01000000)  returns 0x00 (0000ms, 16723ms total)
T1F48 4929:229 JLINK_WriteReg(MSP, 0x20001000)  returns 0x00 (0000ms, 16723ms total)
T1F48 4929:229 JLINK_WriteReg(PSP, 0x20001000)  returns 0x00 (0000ms, 16723ms total)
T1F48 4929:229 JLINK_WriteReg(CFBP, 0x00000000)  returns 0x00 (0000ms, 16723ms total)
T1F48 4929:229 JLINK_SetBPEx(Addr = 0x20000000, Type = 0xFFFFFFF2)  returns 0x00000002 (0000ms, 16723ms total)
T1F48 4929:229 JLINK_Go() -- CPU_ReadMem(4 bytes @ 0xE0001000) (0002ms, 16725ms total)
T1F48 4929:231 JLINK_IsHalted()  returns FALSE (0000ms, 16725ms total)
T1F48 4929:296 JLINK_IsHalted() -- CPU_ReadMem(2 bytes @ 0x20000000)  returns TRUE (0003ms, 16728ms total)
T1F48 4929:299 JLINK_ReadReg(R15 (PC))  returns 0x20000000 (0000ms, 16725ms total)
T1F48 4929:299 JLINK_ClrBPEx(BPHandle = 0x00000002)  returns 0x00 (0000ms, 16725ms total)
T1F48 4929:299 JLINK_ReadReg(R0)  returns 0x00000000 (0000ms, 16725ms total)
T1F48 4929:299 JLINK_WriteReg(R0, 0x08004000)  returns 0x00 (0000ms, 16725ms total)
T1F48 4929:299 JLINK_WriteReg(R1, 0x00004000)  returns 0x00 (0000ms, 16725ms total)
T1F48 4929:299 JLINK_WriteReg(R2, 0x000000FF)  returns 0x00 (0000ms, 16725ms total)
T1F48 4929:299 JLINK_WriteReg(R3, 0x00000000)  returns 0x00 (0000ms, 16725ms total)
T1F48 4929:299 JLINK_WriteReg(R4, 0x00000000)  returns 0x00 (0000ms, 16725ms total)
T1F48 4929:299 JLINK_WriteReg(R5, 0x00000000)  returns 0x00 (0000ms, 16725ms total)
T1F48 4929:299 JLINK_WriteReg(R6, 0x00000000)  returns 0x00 (0000ms, 16725ms total)
T1F48 4929:299 JLINK_WriteReg(R7, 0x00000000)  returns 0x00 (0000ms, 16725ms total)
T1F48 4929:299 JLINK_WriteReg(R8, 0x00000000)  returns 0x00 (0000ms, 16725ms total)
T1F48 4929:299 JLINK_WriteReg(R9, 0x20000184)  returns 0x00 (0000ms, 16725ms total)
T1F48 4929:299 JLINK_WriteReg(R10, 0x00000000)  returns 0x00 (0000ms, 16725ms total)
T1F48 4929:299 JLINK_WriteReg(R11, 0x00000000)  returns 0x00 (0000ms, 16725ms total)
T1F48 4929:299 JLINK_WriteReg(R12, 0x00000000)  returns 0x00 (0000ms, 16725ms total)
T1F48 4929:299 JLINK_WriteReg(R13 (SP), 0x20001000)  returns 0x00 (0000ms, 16725ms total)
T1F48 4929:299 JLINK_WriteReg(R14, 0x20000001)  returns 0x00 (0000ms, 16725ms total)
T1F48 4929:299 JLINK_WriteReg(R15 (PC), 0x20000020)  returns 0x00 (0000ms, 16725ms total)
T1F48 4929:299 JLINK_WriteReg(XPSR, 0x01000000)  returns 0x00 (0000ms, 16725ms total)
T1F48 4929:299 JLINK_WriteReg(MSP, 0x20001000)  returns 0x00 (0000ms, 16725ms total)
T1F48 4929:299 JLINK_WriteReg(PSP, 0x20001000)  returns 0x00 (0000ms, 16725ms total)
T1F48 4929:299 JLINK_WriteReg(CFBP, 0x00000000)  returns 0x00 (0000ms, 16725ms total)
T1F48 4929:299 JLINK_SetBPEx(Addr = 0x20000000, Type = 0xFFFFFFF2)  returns 0x00000003 (0000ms, 16725ms total)
T1F48 4929:299 JLINK_Go() -- CPU_ReadMem(4 bytes @ 0xE0001000) (0002ms, 16727ms total)
T1F48 4929:301 JLINK_IsHalted() -- CPU_ReadMem(2 bytes @ 0x20000000)  returns TRUE (0003ms, 16730ms total)
T1F48 4929:304 JLINK_ReadReg(R15 (PC))  returns 0x20000000 (0000ms, 16727ms total)
T1F48 4929:304 JLINK_ClrBPEx(BPHandle = 0x00000003)  returns 0x00 (0001ms, 16728ms total)
T1F48 4929:305 JLINK_ReadReg(R0)  returns 0x00000001 (0000ms, 16728ms total)
T1F48 4929:305 JLINK_WriteReg(R0, 0x08004000)  returns 0x00 (0000ms, 16728ms total)
T1F48 4929:305 JLINK_WriteReg(R1, 0x00004000)  returns 0x00 (0000ms, 16728ms total)
T1F48 4929:305 JLINK_WriteReg(R2, 0x000000FF)  returns 0x00 (0000ms, 16728ms total)
T1F48 4929:305 JLINK_WriteReg(R3, 0x00000000)  returns 0x00 (0000ms, 16728ms total)
T1F48 4929:305 JLINK_WriteReg(R4, 0x00000000)  returns 0x00 (0000ms, 16728ms total)
T1F48 4929:305 JLINK_WriteReg(R5, 0x00000000)  returns 0x00 (0000ms, 16728ms total)
T1F48 4929:305 JLINK_WriteReg(R6, 0x00000000)  returns 0x00 (0000ms, 16728ms total)
T1F48 4929:305 JLINK_WriteReg(R7, 0x00000000)  returns 0x00 (0000ms, 16728ms total)
T1F48 4929:305 JLINK_WriteReg(R8, 0x00000000)  returns 0x00 (0000ms, 16728ms total)
T1F48 4929:305 JLINK_WriteReg(R9, 0x20000184)  returns 0x00 (0000ms, 16728ms total)
T1F48 4929:305 JLINK_WriteReg(R10, 0x00000000)  returns 0x00 (0000ms, 16728ms total)
T1F48 4929:305 JLINK_WriteReg(R11, 0x00000000)  returns 0x00 (0000ms, 16728ms total)
T1F48 4929:305 JLINK_WriteReg(R12, 0x00000000)  returns 0x00 (0000ms, 16728ms total)
T1F48 4929:305 JLINK_WriteReg(R13 (SP), 0x20001000)  returns 0x00 (0000ms, 16728ms total)
T1F48 4929:305 JLINK_WriteReg(R14, 0x20000001)  returns 0x00 (0000ms, 16728ms total)
T1F48 4929:305 JLINK_WriteReg(R15 (PC), 0x200000C6)  returns 0x00 (0000ms, 16728ms total)
T1F48 4929:305 JLINK_WriteReg(XPSR, 0x01000000)  returns 0x00 (0000ms, 16728ms total)
T1F48 4929:305 JLINK_WriteReg(MSP, 0x20001000)  returns 0x00 (0000ms, 16728ms total)
T1F48 4929:305 JLINK_WriteReg(PSP, 0x20001000)  returns 0x00 (0000ms, 16728ms total)
T1F48 4929:305 JLINK_WriteReg(CFBP, 0x00000000)  returns 0x00 (0000ms, 16728ms total)
T1F48 4929:305 JLINK_SetBPEx(Addr = 0x20000000, Type = 0xFFFFFFF2)  returns 0x00000004 (0000ms, 16728ms total)
T1F48 4929:305 JLINK_Go() -- CPU_ReadMem(4 bytes @ 0xE0001000) (0002ms, 16730ms total)
T1F48 4929:307 JLINK_IsHalted()  returns FALSE (0000ms, 16730ms total)
T1F48 4929:313 JLINK_IsHalted()  returns FALSE (0000ms, 16730ms total)
T1F48 4929:315 JLINK_IsHalted()  returns FALSE (0000ms, 16730ms total)
T1F48 4929:317 JLINK_IsHalted()  returns FALSE (0000ms, 16730ms total)
T1F48 4929:322 JLINK_IsHalted()  returns FALSE (0000ms, 16730ms total)
T1F48 4929:324 JLINK_IsHalted()  returns FALSE (0000ms, 16730ms total)
T1F48 4929:326 JLINK_IsHalted()  returns FALSE (0000ms, 16730ms total)
T1F48 4929:328 JLINK_IsHalted()  returns FALSE (0000ms, 16730ms total)
T1F48 4929:330 JLINK_IsHalted()  returns FALSE (0000ms, 16730ms total)
T1F48 4929:332 JLINK_IsHalted()  returns FALSE (0000ms, 16730ms total)
T1F48 4929:334 JLINK_IsHalted()  returns FALSE (0000ms, 16730ms total)
T1F48 4929:340 JLINK_IsHalted()  returns FALSE (0000ms, 16730ms total)
T1F48 4929:342 JLINK_IsHalted()  returns FALSE (0000ms, 16730ms total)
T1F48 4929:344 JLINK_IsHalted()  returns FALSE (0000ms, 16730ms total)
T1F48 4929:346 JLINK_IsHalted()  returns FALSE (0000ms, 16730ms total)
T1F48 4929:353 JLINK_IsHalted()  returns FALSE (0000ms, 16730ms total)
T1F48 4929:355 JLINK_IsHalted()  returns FALSE (0000ms, 16730ms total)
T1F48 4929:357 JLINK_IsHalted()  returns FALSE (0000ms, 16730ms total)
T1F48 4929:359 JLINK_IsHalted()  returns FALSE (0000ms, 16730ms total)
T1F48 4929:361 JLINK_IsHalted()  returns FALSE (0000ms, 16730ms total)
T1F48 4929:363 JLINK_IsHalted()  returns FALSE (0000ms, 16730ms total)
T1F48 4929:368 JLINK_IsHalted()  returns FALSE (0000ms, 16730ms total)
T1F48 4929:370 JLINK_IsHalted()  returns FALSE (0000ms, 16730ms total)
T1F48 4929:372 JLINK_IsHalted()  returns FALSE (0000ms, 16730ms total)
T1F48 4929:374 JLINK_IsHalted()  returns FALSE (0000ms, 16730ms total)
T1F48 4929:376 JLINK_IsHalted()  returns FALSE (0000ms, 16730ms total)
T1F48 4929:378 JLINK_IsHalted()  returns FALSE (0000ms, 16730ms total)
T1F48 4929:380 JLINK_IsHalted()  returns FALSE (0000ms, 16730ms total)
T1F48 4929:382 JLINK_IsHalted()  returns FALSE (0000ms, 16730ms total)
T1F48 4929:387 JLINK_IsHalted()  returns FALSE (0000ms, 16730ms total)
T1F48 4929:389 JLINK_IsHalted()  returns FALSE (0000ms, 16730ms total)
T1F48 4929:391 JLINK_IsHalted()  returns FALSE (0000ms, 16730ms total)
T1F48 4929:393 JLINK_IsHalted()  returns FALSE (0000ms, 16730ms total)
T1F48 4929:395 JLINK_IsHalted()  returns FALSE (0000ms, 16730ms total)
T1F48 4929:402 JLINK_IsHalted()  returns FALSE (0000ms, 16730ms total)
T1F48 4929:404 JLINK_IsHalted()  returns FALSE (0000ms, 16730ms total)
T1F48 4929:406 JLINK_IsHalted()  returns FALSE (0000ms, 16730ms total)
T1F48 4929:408 JLINK_IsHalted()  returns FALSE (0000ms, 16730ms total)
T1F48 4929:410 JLINK_IsHalted()  returns FALSE (0000ms, 16730ms total)
T1F48 4929:415 JLINK_IsHalted()  returns FALSE (0000ms, 16730ms total)
T1F48 4929:417 JLINK_IsHalted()  returns FALSE (0000ms, 16730ms total)
T1F48 4929:419 JLINK_IsHalted()  returns FALSE (0000ms, 16730ms total)
T1F48 4929:421 JLINK_IsHalted()  returns FALSE (0000ms, 16730ms total)
T1F48 4929:423 JLINK_IsHalted()  returns FALSE (0000ms, 16730ms total)
T1F48 4929:425 JLINK_IsHalted()  returns FALSE (0000ms, 16730ms total)
T1F48 4929:428 JLINK_IsHalted()  returns FALSE (0000ms, 16730ms total)
T1F48 4929:430 JLINK_IsHalted()  returns FALSE (0000ms, 16730ms total)
T1F48 4929:437 JLINK_IsHalted()  returns FALSE (0000ms, 16730ms total)
T1F48 4929:439 JLINK_IsHalted()  returns FALSE (0000ms, 16730ms total)
T1F48 4929:441 JLINK_IsHalted()  returns FALSE (0000ms, 16730ms total)
T1F48 4929:443 JLINK_IsHalted()  returns FALSE (0000ms, 16730ms total)
T1F48 4929:445 JLINK_IsHalted()  returns FALSE (0000ms, 16730ms total)
T1F48 4929:447 JLINK_IsHalted()  returns FALSE (0000ms, 16730ms total)
T1F48 4929:449 JLINK_IsHalted()  returns FALSE (0000ms, 16730ms total)
T1F48 4929:451 JLINK_IsHalted()  returns FALSE (0000ms, 16730ms total)
T1F48 4929:456 JLINK_IsHalted()  returns FALSE (0000ms, 16730ms total)
T1F48 4929:458 JLINK_IsHalted()  returns FALSE (0000ms, 16730ms total)
T1F48 4929:460 JLINK_IsHalted()  returns FALSE (0000ms, 16730ms total)
T1F48 4929:465 JLINK_IsHalted()  returns FALSE (0000ms, 16730ms total)
T1F48 4929:467 JLINK_IsHalted()  returns FALSE (0000ms, 16730ms total)
T1F48 4929:469 JLINK_IsHalted()  returns FALSE (0000ms, 16730ms total)
T1F48 4929:471 JLINK_IsHalted()  returns FALSE (0000ms, 16730ms total)
T1F48 4929:473 JLINK_IsHalted()  returns FALSE (0000ms, 16730ms total)
T1F48 4929:475 JLINK_IsHalted()  returns FALSE (0000ms, 16730ms total)
T1F48 4929:477 JLINK_IsHalted()  returns FALSE (0000ms, 16730ms total)
T1F48 4929:479 JLINK_IsHalted()  returns FALSE (0000ms, 16730ms total)
T1F48 4929:486 JLINK_IsHalted()  returns FALSE (0000ms, 16730ms total)
T1F48 4929:488 JLINK_IsHalted()  returns FALSE (0000ms, 16730ms total)
T1F48 4929:492 JLINK_IsHalted()  returns FALSE (0000ms, 16730ms total)
T1F48 4929:499 JLINK_IsHalted()  returns FALSE (0000ms, 16730ms total)
T1F48 4929:501 JLINK_IsHalted()  returns FALSE (0000ms, 16730ms total)
T1F48 4929:503 JLINK_IsHalted()  returns FALSE (0000ms, 16730ms total)
T1F48 4929:511 JLINK_IsHalted()  returns FALSE (0000ms, 16730ms total)
T1F48 4929:515 JLINK_IsHalted()  returns FALSE (0000ms, 16730ms total)
T1F48 4929:517 JLINK_IsHalted()  returns FALSE (0000ms, 16730ms total)
T1F48 4929:519 JLINK_IsHalted()  returns FALSE (0000ms, 16730ms total)
T1F48 4929:526 JLINK_IsHalted()  returns FALSE (0000ms, 16730ms total)
T1F48 4929:528 JLINK_IsHalted()  returns FALSE (0000ms, 16730ms total)
T1F48 4929:532 JLINK_IsHalted()  returns FALSE (0000ms, 16730ms total)
T1F48 4929:534 JLINK_IsHalted()  returns FALSE (0000ms, 16730ms total)
T1F48 4929:536 JLINK_IsHalted()  returns FALSE (0000ms, 16730ms total)
T1F48 4929:550 JLINK_IsHalted()  returns FALSE (0000ms, 16730ms total)
T1F48 4929:552 JLINK_IsHalted()  returns FALSE (0000ms, 16730ms total)
T1F48 4929:564 JLINK_IsHalted()  returns FALSE (0000ms, 16730ms total)
T1F48 4929:566 JLINK_IsHalted()  returns FALSE (0000ms, 16730ms total)
T1F48 4929:568 JLINK_IsHalted()  returns FALSE (0000ms, 16730ms total)
T1F48 4929:572 JLINK_IsHalted()  returns FALSE (0000ms, 16730ms total)
T1F48 4929:579 JLINK_IsHalted()  returns FALSE (0000ms, 16730ms total)
T1F48 4929:581 JLINK_IsHalted()  returns FALSE (0000ms, 16730ms total)
T1F48 4929:583 JLINK_IsHalted()  returns FALSE (0000ms, 16730ms total)
T1F48 4929:588 JLINK_IsHalted()  returns FALSE (0000ms, 16730ms total)
T1F48 4929:590 JLINK_IsHalted()  returns FALSE (0000ms, 16730ms total)
T1F48 4929:592 JLINK_IsHalted()  returns FALSE (0000ms, 16730ms total)
T1F48 4929:594 JLINK_IsHalted()  returns FALSE (0000ms, 16730ms total)
T1F48 4929:596 JLINK_IsHalted()  returns FALSE (0000ms, 16730ms total)
T1F48 4929:598 JLINK_IsHalted()  returns FALSE (0000ms, 16730ms total)
T1F48 4929:605 JLINK_IsHalted()  returns FALSE (0000ms, 16730ms total)
T1F48 4929:607 JLINK_IsHalted()  returns FALSE (0000ms, 16730ms total)
T1F48 4929:609 JLINK_IsHalted()  returns FALSE (0000ms, 16730ms total)
T1F48 4929:611 JLINK_IsHalted()  returns FALSE (0000ms, 16730ms total)
T1F48 4929:613 JLINK_IsHalted()  returns FALSE (0000ms, 16730ms total)
T1F48 4929:615 JLINK_IsHalted()  returns FALSE (0000ms, 16730ms total)
T1F48 4929:623 JLINK_IsHalted()  returns FALSE (0000ms, 16730ms total)
T1F48 4929:625 JLINK_IsHalted()  returns FALSE (0000ms, 16730ms total)
T1F48 4929:627 JLINK_IsHalted()  returns FALSE (0000ms, 16730ms total)
T1F48 4929:629 JLINK_IsHalted()  returns FALSE (0000ms, 16730ms total)
T1F48 4929:631 JLINK_IsHalted()  returns FALSE (0000ms, 16730ms total)
T1F48 4929:636 JLINK_IsHalted()  returns FALSE (0000ms, 16730ms total)
T1F48 4929:638 JLINK_IsHalted()  returns FALSE (0000ms, 16730ms total)
T1F48 4929:640 JLINK_IsHalted()  returns FALSE (0000ms, 16730ms total)
T1F48 4929:642 JLINK_IsHalted()  returns FALSE (0000ms, 16730ms total)
T1F48 4929:644 JLINK_IsHalted()  returns FALSE (0000ms, 16730ms total)
T1F48 4929:650 JLINK_IsHalted()  returns FALSE (0000ms, 16730ms total)
T1F48 4929:652 JLINK_IsHalted()  returns FALSE (0000ms, 16730ms total)
T1F48 4929:654 JLINK_IsHalted()  returns FALSE (0000ms, 16730ms total)
T1F48 4929:656 JLINK_IsHalted()  returns FALSE (0000ms, 16730ms total)
T1F48 4929:658 JLINK_IsHalted()  returns FALSE (0000ms, 16730ms total)
T1F48 4929:660 JLINK_IsHalted()  returns FALSE (0000ms, 16730ms total)
T1F48 4929:667 JLINK_IsHalted()  returns FALSE (0000ms, 16730ms total)
T1F48 4929:669 JLINK_IsHalted()  returns FALSE (0000ms, 16730ms total)
T1F48 4929:671 JLINK_IsHalted()  returns FALSE (0000ms, 16730ms total)
T1F48 4929:673 JLINK_IsHalted()  returns FALSE (0000ms, 16730ms total)
T1F48 4929:675 JLINK_IsHalted()  returns FALSE (0000ms, 16730ms total)
T1F48 4929:677 JLINK_IsHalted()  returns FALSE (0000ms, 16730ms total)
T1F48 4929:683 JLINK_IsHalted() -- CPU_ReadMem(2 bytes @ 0x20000000)  returns TRUE (0003ms, 16733ms total)
T1F48 4929:686 JLINK_ReadReg(R15 (PC))  returns 0x20000000 (0000ms, 16730ms total)
T1F48 4929:686 JLINK_ClrBPEx(BPHandle = 0x00000004)  returns 0x00 (0000ms, 16730ms total)
T1F48 4929:686 JLINK_ReadReg(R0)  returns 0x00000000 (0000ms, 16730ms total)
T1F48 4929:686 JLINK_WriteReg(R0, 0x00000001)  returns 0x00 (0000ms, 16730ms total)
T1F48 4929:686 JLINK_WriteReg(R1, 0x00004000)  returns 0x00 (0000ms, 16730ms total)
T1F48 4929:686 JLINK_WriteReg(R2, 0x000000FF)  returns 0x00 (0000ms, 16730ms total)
T1F48 4929:686 JLINK_WriteReg(R3, 0x00000000)  returns 0x00 (0000ms, 16730ms total)
T1F48 4929:686 JLINK_WriteReg(R4, 0x00000000)  returns 0x00 (0000ms, 16730ms total)
T1F48 4929:686 JLINK_WriteReg(R5, 0x00000000)  returns 0x00 (0000ms, 16730ms total)
T1F48 4929:686 JLINK_WriteReg(R6, 0x00000000)  returns 0x00 (0000ms, 16730ms total)
T1F48 4929:686 JLINK_WriteReg(R7, 0x00000000)  returns 0x00 (0000ms, 16730ms total)
T1F48 4929:686 JLINK_WriteReg(R8, 0x00000000)  returns 0x00 (0000ms, 16730ms total)
T1F48 4929:686 JLINK_WriteReg(R9, 0x20000184)  returns 0x00 (0000ms, 16730ms total)
T1F48 4929:686 JLINK_WriteReg(R10, 0x00000000)  returns 0x00 (0000ms, 16730ms total)
T1F48 4929:686 JLINK_WriteReg(R11, 0x00000000)  returns 0x00 (0000ms, 16730ms total)
T1F48 4929:686 JLINK_WriteReg(R12, 0x00000000)  returns 0x00 (0000ms, 16730ms total)
T1F48 4929:686 JLINK_WriteReg(R13 (SP), 0x20001000)  returns 0x00 (0000ms, 16730ms total)
T1F48 4929:686 JLINK_WriteReg(R14, 0x20000001)  returns 0x00 (0000ms, 16730ms total)
T1F48 4929:686 JLINK_WriteReg(R15 (PC), 0x2000008C)  returns 0x00 (0000ms, 16730ms total)
T1F48 4929:686 JLINK_WriteReg(XPSR, 0x01000000)  returns 0x00 (0000ms, 16730ms total)
T1F48 4929:686 JLINK_WriteReg(MSP, 0x20001000)  returns 0x00 (0000ms, 16730ms total)
T1F48 4929:686 JLINK_WriteReg(PSP, 0x20001000)  returns 0x00 (0000ms, 16730ms total)
T1F48 4929:686 JLINK_WriteReg(CFBP, 0x00000000)  returns 0x00 (0000ms, 16730ms total)
T1F48 4929:686 JLINK_SetBPEx(Addr = 0x20000000, Type = 0xFFFFFFF2)  returns 0x00000005 (0000ms, 16730ms total)
T1F48 4929:686 JLINK_Go() -- CPU_ReadMem(4 bytes @ 0xE0001000) (0002ms, 16732ms total)
T1F48 4929:688 JLINK_IsHalted() -- CPU_ReadMem(2 bytes @ 0x20000000)  returns TRUE (0003ms, 16735ms total)
T1F48 4929:691 JLINK_ReadReg(R15 (PC))  returns 0x20000000 (0000ms, 16732ms total)
T1F48 4929:691 JLINK_ClrBPEx(BPHandle = 0x00000005)  returns 0x00 (0000ms, 16732ms total)
T1F48 4929:691 JLINK_ReadReg(R0)  returns 0x00000000 (0000ms, 16732ms total)
T1F48 4929:756 JLINK_WriteMem(0x20000000, 0x0188 Bytes, ...) - Data: 00 BE 0A E0 0D 78 2D 06 68 40 08 24 40 00 00 D3 ... -- CPU_WriteMem(392 bytes @ 0x20000000)  returns 0x188 (0002ms, 16734ms total)
T1F48 4929:758 JLINK_WriteReg(R0, 0x08000000)  returns 0x00 (0000ms, 16734ms total)
T1F48 4929:758 JLINK_WriteReg(R1, 0x0A037A00)  returns 0x00 (0000ms, 16734ms total)
T1F48 4929:758 JLINK_WriteReg(R2, 0x00000002)  returns 0x00 (0000ms, 16734ms total)
T1F48 4929:758 JLINK_WriteReg(R3, 0x00000000)  returns 0x00 (0000ms, 16734ms total)
T1F48 4929:758 JLINK_WriteReg(R4, 0x00000000)  returns 0x00 (0000ms, 16734ms total)
T1F48 4929:758 JLINK_WriteReg(R5, 0x00000000)  returns 0x00 (0001ms, 16735ms total)
T1F48 4929:759 JLINK_WriteReg(R6, 0x00000000)  returns 0x00 (0000ms, 16735ms total)
T1F48 4929:759 JLINK_WriteReg(R7, 0x00000000)  returns 0x00 (0000ms, 16735ms total)
T1F48 4929:759 JLINK_WriteReg(R8, 0x00000000)  returns 0x00 (0000ms, 16735ms total)
T1F48 4929:759 JLINK_WriteReg(R9, 0x20000184)  returns 0x00 (0000ms, 16735ms total)
T1F48 4929:759 JLINK_WriteReg(R10, 0x00000000)  returns 0x00 (0000ms, 16735ms total)
T1F48 4929:759 JLINK_WriteReg(R11, 0x00000000)  returns 0x00 (0000ms, 16735ms total)
T1F48 4929:759 JLINK_WriteReg(R12, 0x00000000)  returns 0x00 (0000ms, 16735ms total)
T1F48 4929:759 JLINK_WriteReg(R13 (SP), 0x20001000)  returns 0x00 (0000ms, 16735ms total)
T1F48 4929:759 JLINK_WriteReg(R14, 0x20000001)  returns 0x00 (0000ms, 16735ms total)
T1F48 4929:759 JLINK_WriteReg(R15 (PC), 0x2000005E)  returns 0x00 (0000ms, 16735ms total)
T1F48 4929:759 JLINK_WriteReg(XPSR, 0x01000000)  returns 0x00 (0000ms, 16735ms total)
T1F48 4929:759 JLINK_WriteReg(MSP, 0x20001000)  returns 0x00 (0000ms, 16735ms total)
T1F48 4929:759 JLINK_WriteReg(PSP, 0x20001000)  returns 0x00 (0000ms, 16735ms total)
T1F48 4929:759 JLINK_WriteReg(CFBP, 0x00000000)  returns 0x00 (0000ms, 16735ms total)
T1F48 4929:759 JLINK_SetBPEx(Addr = 0x20000000, Type = 0xFFFFFFF2) -- CPU_ReadMem(2 bytes @ 0x20000000)  returns 0x00000006 (0000ms, 16735ms total)
T1F48 4929:760 JLINK_Go() -- CPU_WriteMem(2 bytes @ 0x20000000) -- CPU_ReadMem(4 bytes @ 0xE0001000) (0003ms, 16738ms total)
T1F48 4929:763 JLINK_IsHalted() -- CPU_ReadMem(2 bytes @ 0x20000000)  returns TRUE (0003ms, 16741ms total)
T1F48 4929:766 JLINK_ReadReg(R15 (PC))  returns 0x20000000 (0000ms, 16738ms total)
T1F48 4929:766 JLINK_ClrBPEx(BPHandle = 0x00000006)  returns 0x00 (0000ms, 16738ms total)
T1F48 4929:766 JLINK_ReadReg(R0)  returns 0x00000000 (0000ms, 16738ms total)
T1F48 4929:766 JLINK_WriteMem(0x20000188, 0x0278 Bytes, ...) - Data: 58 26 00 20 9D 01 00 08 DF 23 00 08 D9 22 00 08 ... -- CPU_WriteMem(632 bytes @ 0x20000188)  returns 0x278 (0003ms, 16741ms total)
T1F48 4929:769 JLINK_WriteMem(0x20000400, 0x0188 Bytes, ...) - Data: 91 40 C2 F1 20 03 20 FA 03 F3 19 43 90 40 70 47 ... -- CPU_WriteMem(392 bytes @ 0x20000400)  returns 0x188 (0002ms, 16743ms total)
T1F48 4929:771 JLINK_WriteReg(R0, 0x08000000)  returns 0x00 (0000ms, 16743ms total)
T1F48 4929:771 JLINK_WriteReg(R1, 0x00000400)  returns 0x00 (0000ms, 16743ms total)
T1F48 4929:771 JLINK_WriteReg(R2, 0x20000188)  returns 0x00 (0000ms, 16743ms total)
T1F48 4929:771 JLINK_WriteReg(R3, 0x00000000)  returns 0x00 (0000ms, 16743ms total)
T1F48 4929:771 JLINK_WriteReg(R4, 0x00000000)  returns 0x00 (0000ms, 16743ms total)
T1F48 4929:771 JLINK_WriteReg(R5, 0x00000000)  returns 0x00 (0000ms, 16743ms total)
T1F48 4929:771 JLINK_WriteReg(R6, 0x00000000)  returns 0x00 (0000ms, 16743ms total)
T1F48 4929:771 JLINK_WriteReg(R7, 0x00000000)  returns 0x00 (0000ms, 16743ms total)
T1F48 4929:772 JLINK_WriteReg(R8, 0x00000000)  returns 0x00 (0000ms, 16743ms total)
T1F48 4929:772 JLINK_WriteReg(R9, 0x20000184)  returns 0x00 (0000ms, 16743ms total)
T1F48 4929:772 JLINK_WriteReg(R10, 0x00000000)  returns 0x00 (0000ms, 16743ms total)
T1F48 4929:772 JLINK_WriteReg(R11, 0x00000000)  returns 0x00 (0000ms, 16743ms total)
T1F48 4929:772 JLINK_WriteReg(R12, 0x00000000)  returns 0x00 (0000ms, 16743ms total)
T1F48 4929:772 JLINK_WriteReg(R13 (SP), 0x20001000)  returns 0x00 (0000ms, 16743ms total)
T1F48 4929:772 JLINK_WriteReg(R14, 0x20000001)  returns 0x00 (0000ms, 16743ms total)
T1F48 4929:772 JLINK_WriteReg(R15 (PC), 0x20000112)  returns 0x00 (0000ms, 16743ms total)
T1F48 4929:772 JLINK_WriteReg(XPSR, 0x01000000)  returns 0x00 (0000ms, 16743ms total)
T1F48 4929:772 JLINK_WriteReg(MSP, 0x20001000)  returns 0x00 (0000ms, 16743ms total)
T1F48 4929:772 JLINK_WriteReg(PSP, 0x20001000)  returns 0x00 (0000ms, 16743ms total)
T1F48 4929:772 JLINK_WriteReg(CFBP, 0x00000000)  returns 0x00 (0000ms, 16743ms total)
T1F48 4929:772 JLINK_SetBPEx(Addr = 0x20000000, Type = 0xFFFFFFF2)  returns 0x00000007 (0000ms, 16743ms total)
T1F48 4929:772 JLINK_Go() -- CPU_ReadMem(4 bytes @ 0xE0001000) (0002ms, 16745ms total)
T1F48 4929:774 JLINK_IsHalted()  returns FALSE (0000ms, 16745ms total)
T1F48 4929:794 JLINK_IsHalted() -- CPU_ReadMem(2 bytes @ 0x20000000)  returns TRUE (0003ms, 16748ms total)
T1F48 4929:797 JLINK_ReadReg(R15 (PC))  returns 0x20000000 (0000ms, 16745ms total)
T1F48 4929:797 JLINK_ClrBPEx(BPHandle = 0x00000007)  returns 0x00 (0000ms, 16745ms total)
T1F48 4929:797 JLINK_ReadReg(R0)  returns 0x00000000 (0000ms, 16745ms total)
T1F48 4929:797 JLINK_WriteMem(0x20000188, 0x0278 Bytes, ...) - Data: 08 2C 0A D0 09 2C 08 D0 0A 2C 06 D0 0B 2C 04 D0 ... -- CPU_WriteMem(632 bytes @ 0x20000188)  returns 0x278 (0003ms, 16748ms total)
T1F48 4929:800 JLINK_WriteMem(0x20000400, 0x0188 Bytes, ...) - Data: 10 60 10 68 40 F4 00 70 10 60 10 68 40 F0 01 00 ... -- CPU_WriteMem(392 bytes @ 0x20000400)  returns 0x188 (0002ms, 16750ms total)
T1F48 4929:802 JLINK_WriteReg(R0, 0x08000400)  returns 0x00 (0000ms, 16750ms total)
T1F48 4929:802 JLINK_WriteReg(R1, 0x00000400)  returns 0x00 (0000ms, 16750ms total)
T1F48 4929:802 JLINK_WriteReg(R2, 0x20000188)  returns 0x00 (0000ms, 16750ms total)
T1F48 4929:802 JLINK_WriteReg(R3, 0x00000000)  returns 0x00 (0000ms, 16750ms total)
T1F48 4929:802 JLINK_WriteReg(R4, 0x00000000)  returns 0x00 (0000ms, 16750ms total)
T1F48 4929:802 JLINK_WriteReg(R5, 0x00000000)  returns 0x00 (0000ms, 16750ms total)
T1F48 4929:802 JLINK_WriteReg(R6, 0x00000000)  returns 0x00 (0000ms, 16750ms total)
T1F48 4929:802 JLINK_WriteReg(R7, 0x00000000)  returns 0x00 (0000ms, 16750ms total)
T1F48 4929:802 JLINK_WriteReg(R8, 0x00000000)  returns 0x00 (0000ms, 16750ms total)
T1F48 4929:802 JLINK_WriteReg(R9, 0x20000184)  returns 0x00 (0000ms, 16750ms total)
T1F48 4929:802 JLINK_WriteReg(R10, 0x00000000)  returns 0x00 (0000ms, 16750ms total)
T1F48 4929:802 JLINK_WriteReg(R11, 0x00000000)  returns 0x00 (0000ms, 16750ms total)
T1F48 4929:802 JLINK_WriteReg(R12, 0x00000000)  returns 0x00 (0000ms, 16750ms total)
T1F48 4929:802 JLINK_WriteReg(R13 (SP), 0x20001000)  returns 0x00 (0000ms, 16750ms total)
T1F48 4929:802 JLINK_WriteReg(R14, 0x20000001)  returns 0x00 (0000ms, 16750ms total)
T1F48 4929:802 JLINK_WriteReg(R15 (PC), 0x20000112)  returns 0x00 (0000ms, 16750ms total)
T1F48 4929:802 JLINK_WriteReg(XPSR, 0x01000000)  returns 0x00 (0000ms, 16750ms total)
T1F48 4929:802 JLINK_WriteReg(MSP, 0x20001000)  returns 0x00 (0000ms, 16750ms total)
T1F48 4929:802 JLINK_WriteReg(PSP, 0x20001000)  returns 0x00 (0000ms, 16750ms total)
T1F48 4929:802 JLINK_WriteReg(CFBP, 0x00000000)  returns 0x00 (0000ms, 16750ms total)
T1F48 4929:802 JLINK_SetBPEx(Addr = 0x20000000, Type = 0xFFFFFFF2)  returns 0x00000008 (0000ms, 16750ms total)
T1F48 4929:802 JLINK_Go() -- CPU_ReadMem(4 bytes @ 0xE0001000) (0002ms, 16752ms total)
T1F48 4929:804 JLINK_IsHalted()  returns FALSE (0001ms, 16753ms total)
T1F48 4929:807 JLINK_IsHalted()  returns FALSE (0000ms, 16752ms total)
T1F48 4929:814 JLINK_IsHalted() -- CPU_ReadMem(2 bytes @ 0x20000000)  returns TRUE (0003ms, 16755ms total)
T1F48 4929:817 JLINK_ReadReg(R15 (PC))  returns 0x20000000 (0000ms, 16752ms total)
T1F48 4929:817 JLINK_ClrBPEx(BPHandle = 0x00000008)  returns 0x00 (0000ms, 16752ms total)
T1F48 4929:817 JLINK_ReadReg(R0)  returns 0x00000000 (0000ms, 16752ms total)
T1F48 4929:817 JLINK_WriteMem(0x20000188, 0x0278 Bytes, ...) - Data: 08 B5 00 68 06 49 88 42 08 D1 06 48 01 68 41 F4 ... -- CPU_WriteMem(632 bytes @ 0x20000188)  returns 0x278 (0003ms, 16755ms total)
T1F48 4929:820 JLINK_WriteMem(0x20000400, 0x0188 Bytes, ...) - Data: 71 07 CB 0E 0F 21 99 40 88 43 29 69 99 40 01 43 ... -- CPU_WriteMem(392 bytes @ 0x20000400)  returns 0x188 (0002ms, 16757ms total)
T1F48 4929:822 JLINK_WriteReg(R0, 0x08000800)  returns 0x00 (0000ms, 16757ms total)
T1F48 4929:822 JLINK_WriteReg(R1, 0x00000400)  returns 0x00 (0000ms, 16757ms total)
T1F48 4929:822 JLINK_WriteReg(R2, 0x20000188)  returns 0x00 (0000ms, 16757ms total)
T1F48 4929:822 JLINK_WriteReg(R3, 0x00000000)  returns 0x00 (0000ms, 16757ms total)
T1F48 4929:822 JLINK_WriteReg(R4, 0x00000000)  returns 0x00 (0000ms, 16757ms total)
T1F48 4929:822 JLINK_WriteReg(R5, 0x00000000)  returns 0x00 (0000ms, 16757ms total)
T1F48 4929:822 JLINK_WriteReg(R6, 0x00000000)  returns 0x00 (0000ms, 16757ms total)
T1F48 4929:822 JLINK_WriteReg(R7, 0x00000000)  returns 0x00 (0000ms, 16757ms total)
T1F48 4929:822 JLINK_WriteReg(R8, 0x00000000)  returns 0x00 (0000ms, 16757ms total)
T1F48 4929:822 JLINK_WriteReg(R9, 0x20000184)  returns 0x00 (0000ms, 16757ms total)
T1F48 4929:822 JLINK_WriteReg(R10, 0x00000000)  returns 0x00 (0000ms, 16757ms total)
T1F48 4929:822 JLINK_WriteReg(R11, 0x00000000)  returns 0x00 (0000ms, 16757ms total)
T1F48 4929:822 JLINK_WriteReg(R12, 0x00000000)  returns 0x00 (0000ms, 16757ms total)
T1F48 4929:822 JLINK_WriteReg(R13 (SP), 0x20001000)  returns 0x00 (0000ms, 16757ms total)
T1F48 4929:822 JLINK_WriteReg(R14, 0x20000001)  returns 0x00 (0000ms, 16757ms total)
T1F48 4929:822 JLINK_WriteReg(R15 (PC), 0x20000112)  returns 0x00 (0000ms, 16757ms total)
T1F48 4929:822 JLINK_WriteReg(XPSR, 0x01000000)  returns 0x00 (0000ms, 16757ms total)
T1F48 4929:822 JLINK_WriteReg(MSP, 0x20001000)  returns 0x00 (0000ms, 16757ms total)
T1F48 4929:822 JLINK_WriteReg(PSP, 0x20001000)  returns 0x00 (0000ms, 16757ms total)
T1F48 4929:822 JLINK_WriteReg(CFBP, 0x00000000)  returns 0x00 (0000ms, 16757ms total)
T1F48 4929:822 JLINK_SetBPEx(Addr = 0x20000000, Type = 0xFFFFFFF2)  returns 0x00000009 (0000ms, 16757ms total)
T1F48 4929:822 JLINK_Go() -- CPU_ReadMem(4 bytes @ 0xE0001000) (0003ms, 16760ms total)
T1F48 4929:825 JLINK_IsHalted()  returns FALSE (0000ms, 16760ms total)
T1F48 4929:832 JLINK_IsHalted() -- CPU_ReadMem(2 bytes @ 0x20000000)  returns TRUE (0003ms, 16763ms total)
T1F48 4929:835 JLINK_ReadReg(R15 (PC))  returns 0x20000000 (0000ms, 16760ms total)
T1F48 4929:835 JLINK_ClrBPEx(BPHandle = 0x00000009)  returns 0x00 (0000ms, 16760ms total)
T1F48 4929:835 JLINK_ReadReg(R0)  returns 0x00000000 (0000ms, 16760ms total)
T1F48 4929:835 JLINK_WriteMem(0x20000188, 0x0278 Bytes, ...) - Data: 00 1C 02 40 00 20 02 40 2E 2E 2F 44 72 69 76 65 ... -- CPU_WriteMem(632 bytes @ 0x20000188)  returns 0x278 (0003ms, 16763ms total)
T1F48 4929:838 JLINK_WriteMem(0x20000400, 0x0188 Bytes, ...) - Data: 72 69 76 65 72 73 2F 53 54 4D 33 32 46 34 78 78 ... -- CPU_WriteMem(392 bytes @ 0x20000400)  returns 0x188 (0002ms, 16765ms total)
T1F48 4929:840 JLINK_WriteReg(R0, 0x08000C00)  returns 0x00 (0000ms, 16765ms total)
T1F48 4929:840 JLINK_WriteReg(R1, 0x00000400)  returns 0x00 (0000ms, 16765ms total)
T1F48 4929:840 JLINK_WriteReg(R2, 0x20000188)  returns 0x00 (0000ms, 16765ms total)
T1F48 4929:840 JLINK_WriteReg(R3, 0x00000000)  returns 0x00 (0000ms, 16765ms total)
T1F48 4929:840 JLINK_WriteReg(R4, 0x00000000)  returns 0x00 (0000ms, 16765ms total)
T1F48 4929:840 JLINK_WriteReg(R5, 0x00000000)  returns 0x00 (0000ms, 16765ms total)
T1F48 4929:840 JLINK_WriteReg(R6, 0x00000000)  returns 0x00 (0000ms, 16765ms total)
T1F48 4929:840 JLINK_WriteReg(R7, 0x00000000)  returns 0x00 (0000ms, 16765ms total)
T1F48 4929:840 JLINK_WriteReg(R8, 0x00000000)  returns 0x00 (0000ms, 16765ms total)
T1F48 4929:840 JLINK_WriteReg(R9, 0x20000184)  returns 0x00 (0000ms, 16765ms total)
T1F48 4929:840 JLINK_WriteReg(R10, 0x00000000)  returns 0x00 (0000ms, 16765ms total)
T1F48 4929:840 JLINK_WriteReg(R11, 0x00000000)  returns 0x00 (0000ms, 16765ms total)
T1F48 4929:840 JLINK_WriteReg(R12, 0x00000000)  returns 0x00 (0000ms, 16765ms total)
T1F48 4929:840 JLINK_WriteReg(R13 (SP), 0x20001000)  returns 0x00 (0000ms, 16765ms total)
T1F48 4929:840 JLINK_WriteReg(R14, 0x20000001)  returns 0x00 (0000ms, 16765ms total)
T1F48 4929:840 JLINK_WriteReg(R15 (PC), 0x20000112)  returns 0x00 (0000ms, 16765ms total)
T1F48 4929:840 JLINK_WriteReg(XPSR, 0x01000000)  returns 0x00 (0000ms, 16765ms total)
T1F48 4929:840 JLINK_WriteReg(MSP, 0x20001000)  returns 0x00 (0000ms, 16765ms total)
T1F48 4929:840 JLINK_WriteReg(PSP, 0x20001000)  returns 0x00 (0000ms, 16765ms total)
T1F48 4929:840 JLINK_WriteReg(CFBP, 0x00000000)  returns 0x00 (0000ms, 16765ms total)
T1F48 4929:840 JLINK_SetBPEx(Addr = 0x20000000, Type = 0xFFFFFFF2)  returns 0x0000000A (0000ms, 16765ms total)
T1F48 4929:840 JLINK_Go() -- CPU_ReadMem(4 bytes @ 0xE0001000) (0002ms, 16767ms total)
T1F48 4929:843 JLINK_IsHalted()  returns FALSE (0000ms, 16767ms total)
T1F48 4929:851 JLINK_IsHalted() -- CPU_ReadMem(2 bytes @ 0x20000000)  returns TRUE (0003ms, 16770ms total)
T1F48 4929:854 JLINK_ReadReg(R15 (PC))  returns 0x20000000 (0000ms, 16767ms total)
T1F48 4929:854 JLINK_ClrBPEx(BPHandle = 0x0000000A)  returns 0x00 (0000ms, 16767ms total)
T1F48 4929:854 JLINK_ReadReg(R0)  returns 0x00000000 (0000ms, 16767ms total)
T1F48 4929:854 JLINK_WriteMem(0x20000188, 0x0278 Bytes, ...) - Data: 60 68 A9 F1 08 09 88 B1 01 28 22 D0 02 28 24 D0 ... -- CPU_WriteMem(632 bytes @ 0x20000188)  returns 0x278 (0003ms, 16770ms total)
T1F48 4929:857 JLINK_WriteMem(0x20000400, 0x0188 Bytes, ...) - Data: 81 00 02 28 0B D1 EF 48 00 1F 00 68 40 02 06 D5 ... -- CPU_WriteMem(392 bytes @ 0x20000400)  returns 0x188 (0002ms, 16772ms total)
T1F48 4929:859 JLINK_WriteReg(R0, 0x08001000)  returns 0x00 (0000ms, 16772ms total)
T1F48 4929:859 JLINK_WriteReg(R1, 0x00000400)  returns 0x00 (0000ms, 16772ms total)
T1F48 4929:859 JLINK_WriteReg(R2, 0x20000188)  returns 0x00 (0000ms, 16772ms total)
T1F48 4929:859 JLINK_WriteReg(R3, 0x00000000)  returns 0x00 (0000ms, 16772ms total)
T1F48 4929:859 JLINK_WriteReg(R4, 0x00000000)  returns 0x00 (0000ms, 16772ms total)
T1F48 4929:859 JLINK_WriteReg(R5, 0x00000000)  returns 0x00 (0000ms, 16772ms total)
T1F48 4929:859 JLINK_WriteReg(R6, 0x00000000)  returns 0x00 (0000ms, 16772ms total)
T1F48 4929:859 JLINK_WriteReg(R7, 0x00000000)  returns 0x00 (0000ms, 16772ms total)
T1F48 4929:859 JLINK_WriteReg(R8, 0x00000000)  returns 0x00 (0000ms, 16772ms total)
T1F48 4929:859 JLINK_WriteReg(R9, 0x20000184)  returns 0x00 (0000ms, 16772ms total)
T1F48 4929:859 JLINK_WriteReg(R10, 0x00000000)  returns 0x00 (0001ms, 16773ms total)
T1F48 4929:860 JLINK_WriteReg(R11, 0x00000000)  returns 0x00 (0000ms, 16773ms total)
T1F48 4929:860 JLINK_WriteReg(R12, 0x00000000)  returns 0x00 (0000ms, 16773ms total)
T1F48 4929:860 JLINK_WriteReg(R13 (SP), 0x20001000)  returns 0x00 (0000ms, 16773ms total)
T1F48 4929:860 JLINK_WriteReg(R14, 0x20000001)  returns 0x00 (0000ms, 16773ms total)
T1F48 4929:860 JLINK_WriteReg(R15 (PC), 0x20000112)  returns 0x00 (0000ms, 16773ms total)
T1F48 4929:860 JLINK_WriteReg(XPSR, 0x01000000)  returns 0x00 (0000ms, 16773ms total)
T1F48 4929:860 JLINK_WriteReg(MSP, 0x20001000)  returns 0x00 (0000ms, 16773ms total)
T1F48 4929:860 JLINK_WriteReg(PSP, 0x20001000)  returns 0x00 (0000ms, 16773ms total)
T1F48 4929:860 JLINK_WriteReg(CFBP, 0x00000000)  returns 0x00 (0000ms, 16773ms total)
T1F48 4929:860 JLINK_SetBPEx(Addr = 0x20000000, Type = 0xFFFFFFF2)  returns 0x0000000B (0000ms, 16773ms total)
T1F48 4929:860 JLINK_Go() -- CPU_ReadMem(4 bytes @ 0xE0001000) (0002ms, 16775ms total)
T1F48 4929:862 JLINK_IsHalted()  returns FALSE (0000ms, 16775ms total)
T1F48 4929:871 JLINK_IsHalted() -- CPU_ReadMem(2 bytes @ 0x20000000)  returns TRUE (0003ms, 16778ms total)
T1F48 4929:874 JLINK_ReadReg(R15 (PC))  returns 0x20000000 (0000ms, 16775ms total)
T1F48 4929:874 JLINK_ClrBPEx(BPHandle = 0x0000000B)  returns 0x00 (0000ms, 16775ms total)
T1F48 4929:874 JLINK_ReadReg(R0)  returns 0x00000000 (0000ms, 16775ms total)
T1F48 4929:874 JLINK_WriteMem(0x20000188, 0x0278 Bytes, ...) - Data: 95 FC 07 46 05 E0 00 BF FF F7 90 FC C0 1B 02 28 ... -- CPU_WriteMem(632 bytes @ 0x20000188)  returns 0x278 (0003ms, 16778ms total)
T1F48 4929:877 JLINK_WriteMem(0x20000400, 0x0188 Bytes, ...) - Data: 28 68 80 01 F4 D4 00 20 F8 E7 01 20 F6 E7 00 00 ... -- CPU_WriteMem(392 bytes @ 0x20000400)  returns 0x188 (0002ms, 16780ms total)
T1F48 4929:879 JLINK_WriteReg(R0, 0x08001400)  returns 0x00 (0000ms, 16780ms total)
T1F48 4929:879 JLINK_WriteReg(R1, 0x00000400)  returns 0x00 (0000ms, 16780ms total)
T1F48 4929:879 JLINK_WriteReg(R2, 0x20000188)  returns 0x00 (0000ms, 16780ms total)
T1F48 4929:879 JLINK_WriteReg(R3, 0x00000000)  returns 0x00 (0000ms, 16780ms total)
T1F48 4929:879 JLINK_WriteReg(R4, 0x00000000)  returns 0x00 (0000ms, 16780ms total)
T1F48 4929:879 JLINK_WriteReg(R5, 0x00000000)  returns 0x00 (0000ms, 16780ms total)
T1F48 4929:879 JLINK_WriteReg(R6, 0x00000000)  returns 0x00 (0000ms, 16780ms total)
T1F48 4929:879 JLINK_WriteReg(R7, 0x00000000)  returns 0x00 (0000ms, 16780ms total)
T1F48 4929:879 JLINK_WriteReg(R8, 0x00000000)  returns 0x00 (0000ms, 16780ms total)
T1F48 4929:879 JLINK_WriteReg(R9, 0x20000184)  returns 0x00 (0000ms, 16780ms total)
T1F48 4929:879 JLINK_WriteReg(R10, 0x00000000)  returns 0x00 (0000ms, 16780ms total)
T1F48 4929:879 JLINK_WriteReg(R11, 0x00000000)  returns 0x00 (0000ms, 16780ms total)
T1F48 4929:879 JLINK_WriteReg(R12, 0x00000000)  returns 0x00 (0000ms, 16780ms total)
T1F48 4929:879 JLINK_WriteReg(R13 (SP), 0x20001000)  returns 0x00 (0000ms, 16780ms total)
T1F48 4929:879 JLINK_WriteReg(R14, 0x20000001)  returns 0x00 (0000ms, 16780ms total)
T1F48 4929:879 JLINK_WriteReg(R15 (PC), 0x20000112)  returns 0x00 (0000ms, 16780ms total)
T1F48 4929:879 JLINK_WriteReg(XPSR, 0x01000000)  returns 0x00 (0000ms, 16780ms total)
T1F48 4929:879 JLINK_WriteReg(MSP, 0x20001000)  returns 0x00 (0000ms, 16780ms total)
T1F48 4929:880 JLINK_WriteReg(PSP, 0x20001000)  returns 0x00 (0000ms, 16781ms total)
T1F48 4929:880 JLINK_WriteReg(CFBP, 0x00000000)  returns 0x00 (0000ms, 16781ms total)
T1F48 4929:880 JLINK_SetBPEx(Addr = 0x20000000, Type = 0xFFFFFFF2)  returns 0x0000000C (0000ms, 16781ms total)
T1F48 4929:880 JLINK_Go() -- CPU_ReadMem(4 bytes @ 0xE0001000) (0002ms, 16783ms total)
T1F48 4929:882 JLINK_IsHalted()  returns FALSE (0000ms, 16783ms total)
T1F48 4929:888 JLINK_IsHalted() -- CPU_ReadMem(2 bytes @ 0x20000000)  returns TRUE (0002ms, 16785ms total)
T1F48 4929:890 JLINK_ReadReg(R15 (PC))  returns 0x20000000 (0000ms, 16783ms total)
T1F48 4929:890 JLINK_ClrBPEx(BPHandle = 0x0000000C)  returns 0x00 (0000ms, 16783ms total)
T1F48 4929:891 JLINK_ReadReg(R0)  returns 0x00000000 (0000ms, 16783ms total)
T1F48 4929:891 JLINK_WriteMem(0x20000188, 0x0278 Bytes, ...) - Data: 0C 61 C2 F3 C2 04 0C 75 02 F0 07 02 4A 75 C2 6E ... -- CPU_WriteMem(632 bytes @ 0x20000188)  returns 0x278 (0003ms, 16786ms total)
T1F48 4929:894 JLINK_WriteMem(0x20000400, 0x0188 Bytes, ...) - Data: 2E 63 00 00 FE B5 00 25 04 46 76 20 00 95 CD E9 ... -- CPU_WriteMem(392 bytes @ 0x20000400)  returns 0x188 (0002ms, 16788ms total)
T1F48 4929:896 JLINK_WriteReg(R0, 0x08001800)  returns 0x00 (0000ms, 16788ms total)
T1F48 4929:896 JLINK_WriteReg(R1, 0x00000400)  returns 0x00 (0000ms, 16788ms total)
T1F48 4929:896 JLINK_WriteReg(R2, 0x20000188)  returns 0x00 (0000ms, 16788ms total)
